CITIFILE A.01.01
#Momentum: B.08.40.075 (*) 350.500 Feb 19 2009 
#Momentum Date and Time: Thu Sep 15 14:01:41 2011

NAME Momentum.SP

#  mode: MW    reference: S_50

CONSTANT NBR_OF_PORTS 2

CONSTANT NORMALIZATION 1

VAR freq MAG 13

DATA S[1,1] RI
DATA S[1,2] RI
DATA S[2,1] RI
DATA S[2,2] RI
DATA S_50[1,1] RI
DATA S_50[1,2] RI
DATA S_50[2,1] RI
DATA S_50[2,2] RI
DATA S_Z0[1,1] RI
DATA S_Z0[1,2] RI
DATA S_Z0[2,1] RI
DATA S_Z0[2,2] RI
DATA Z0[1] RI
DATA Z0[2] RI
DATA PORTZ[1] RI
DATA PORTZ[2] RI

VAR_LIST_BEGIN
	 2000000000
	 2083333333
	 2166666667
	 2250000000
	 2333333333
	 2416666667
	 2500000000
	 2583333334
	 2666666667
	 2750000000
	 2833333334
	 2916666667
	 3000000000
VAR_LIST_END

BEGIN
	 0.95303,	-0.30286
	 0.94913,	-0.31488
	 0.94508,	-0.32683
	 0.94089,	-0.33871
	 0.93655,	-0.35051
	 0.93208,	-0.36223
	 0.92747,	-0.37388
	 0.92272,	-0.38544
	 0.91785,	-0.39692
	 0.91283,	-0.40831
	 0.90769,	-0.41961
	 0.90243,	-0.43082
	 0.89703,	-0.44194
END
BEGIN
	 0.0001193,	 0.00037897
	 0.00012856,	 0.00038936
	 0.00013784,	 0.0003993
	 0.00014712,	 0.00040877
	 0.00015638,	 0.00041781
	 0.0001656,	 0.00042641
	 0.00017475,	 0.0004346
	 0.00018383,	 0.00044237
	 0.00019282,	 0.00044975
	 0.0002017,	 0.00045676
	 0.00021046,	 0.00046339
	 0.00021908,	 0.00046968
	 0.00022757,	 0.00047562
END
BEGIN
	 0.0001193,	 0.00037897
	 0.00012856,	 0.00038936
	 0.00013784,	 0.0003993
	 0.00014712,	 0.00040877
	 0.00015638,	 0.00041781
	 0.0001656,	 0.00042641
	 0.00017475,	 0.0004346
	 0.00018383,	 0.00044237
	 0.00019282,	 0.00044975
	 0.0002017,	 0.00045676
	 0.00021046,	 0.00046339
	 0.00021908,	 0.00046968
	 0.00022757,	 0.00047562
END
BEGIN
	 0.95303,	-0.30286
	 0.94913,	-0.31488
	 0.94508,	-0.32683
	 0.94089,	-0.33871
	 0.93655,	-0.35051
	 0.93208,	-0.36223
	 0.92747,	-0.37388
	 0.92272,	-0.38544
	 0.91785,	-0.39692
	 0.91283,	-0.40831
	 0.90769,	-0.41961
	 0.90243,	-0.43082
	 0.89703,	-0.44194
END
BEGIN
	 0.95303,	-0.30286
	 0.94913,	-0.31488
	 0.94508,	-0.32683
	 0.94089,	-0.33871
	 0.93655,	-0.35051
	 0.93208,	-0.36223
	 0.92747,	-0.37388
	 0.92272,	-0.38544
	 0.91785,	-0.39692
	 0.91283,	-0.40831
	 0.90769,	-0.41961
	 0.90243,	-0.43082
	 0.89703,	-0.44194
END
BEGIN
	 0.0001193,	 0.00037897
	 0.00012856,	 0.00038936
	 0.00013784,	 0.0003993
	 0.00014712,	 0.00040877
	 0.00015638,	 0.00041781
	 0.0001656,	 0.00042641
	 0.00017475,	 0.0004346
	 0.00018383,	 0.00044237
	 0.00019282,	 0.00044975
	 0.0002017,	 0.00045676
	 0.00021046,	 0.00046339
	 0.00021908,	 0.00046968
	 0.00022757,	 0.00047562
END
BEGIN
	 0.0001193,	 0.00037897
	 0.00012856,	 0.00038936
	 0.00013784,	 0.0003993
	 0.00014712,	 0.00040877
	 0.00015638,	 0.00041781
	 0.0001656,	 0.00042641
	 0.00017475,	 0.0004346
	 0.00018383,	 0.00044237
	 0.00019282,	 0.00044975
	 0.0002017,	 0.00045676
	 0.00021046,	 0.00046339
	 0.00021908,	 0.00046968
	 0.00022757,	 0.00047562
END
BEGIN
	 0.95303,	-0.30286
	 0.94913,	-0.31488
	 0.94508,	-0.32683
	 0.94089,	-0.33871
	 0.93655,	-0.35051
	 0.93208,	-0.36223
	 0.92747,	-0.37388
	 0.92272,	-0.38544
	 0.91785,	-0.39692
	 0.91283,	-0.40831
	 0.90769,	-0.41961
	 0.90243,	-0.43082
	 0.89703,	-0.44194
END
BEGIN
	 0.95303,	-0.30286
	 0.94913,	-0.31488
	 0.94508,	-0.32683
	 0.94089,	-0.33871
	 0.93655,	-0.35051
	 0.93208,	-0.36223
	 0.92747,	-0.37388
	 0.92272,	-0.38544
	 0.91785,	-0.39692
	 0.91283,	-0.40831
	 0.90769,	-0.41961
	 0.90243,	-0.43082
	 0.89703,	-0.44194
END
BEGIN
	 0.0001193,	 0.00037897
	 0.00012856,	 0.00038936
	 0.00013784,	 0.0003993
	 0.00014712,	 0.00040877
	 0.00015638,	 0.00041781
	 0.0001656,	 0.00042641
	 0.00017475,	 0.0004346
	 0.00018383,	 0.00044237
	 0.00019282,	 0.00044975
	 0.0002017,	 0.00045676
	 0.00021046,	 0.00046339
	 0.00021908,	 0.00046968
	 0.00022757,	 0.00047562
END
BEGIN
	 0.0001193,	 0.00037897
	 0.00012856,	 0.00038936
	 0.00013784,	 0.0003993
	 0.00014712,	 0.00040877
	 0.00015638,	 0.00041781
	 0.0001656,	 0.00042641
	 0.00017475,	 0.0004346
	 0.00018383,	 0.00044237
	 0.00019282,	 0.00044975
	 0.0002017,	 0.00045676
	 0.00021046,	 0.00046339
	 0.00021908,	 0.00046968
	 0.00022757,	 0.00047562
END
BEGIN
	 0.95303,	-0.30286
	 0.94913,	-0.31488
	 0.94508,	-0.32683
	 0.94089,	-0.33871
	 0.93655,	-0.35051
	 0.93208,	-0.36223
	 0.92747,	-0.37388
	 0.92272,	-0.38544
	 0.91785,	-0.39692
	 0.91283,	-0.40831
	 0.90769,	-0.41961
	 0.90243,	-0.43082
	 0.89703,	-0.44194
END
BEGIN
	 50 ,	 0 
	 50 ,	 0 
	 50 ,	 0 
	 50 ,	 0 
	 50 ,	 0 
	 50 ,	 0 
	 50 ,	 0 
	 50 ,	 0 
	 50 ,	 0 
	 50 ,	 0 
	 50 ,	 0 
	 50 ,	 0 
	 50 ,	 0 
END
BEGIN
	 50 ,	 0 
	 50 ,	 0 
	 50 ,	 0 
	 50 ,	 0 
	 50 ,	 0 
	 50 ,	 0 
	 50 ,	 0 
	 50 ,	 0 
	 50 ,	 0 
	 50 ,	 0 
	 50 ,	 0 
	 50 ,	 0 
	 50 ,	 0 
END
BEGIN
	 50 ,	 0 
	 50 ,	 0 
	 50 ,	 0 
	 50 ,	 0 
	 50 ,	 0 
	 50 ,	 0 
	 50 ,	 0 
	 50 ,	 0 
	 50 ,	 0 
	 50 ,	 0 
	 50 ,	 0 
	 50 ,	 0 
	 50 ,	 0 
END
BEGIN
	 50 ,	 0 
	 50 ,	 0 
	 50 ,	 0 
	 50 ,	 0 
	 50 ,	 0 
	 50 ,	 0 
	 50 ,	 0 
	 50 ,	 0 
	 50 ,	 0 
	 50 ,	 0 
	 50 ,	 0 
	 50 ,	 0 
	 50 ,	 0 
END
